Circuit: * C:\Users\ros\Desktop\LaserTagProject\ltspice files\laserTransmitter.asc

.OP point found by inspection.
Semiconductor Device Operating Points:
                        --- Diodes ---
Name:      d1
Model:  lxk2-pw14
Id:      0.00e+00
Vd:      0.00e+00
Req:     1.00e+12
CAP:     1.20e-09

                        --- Bipolar Transistors ---
Name:       q1
Model:      npn
Ib:       0.00e+00
Ic:      -0.00e+00
Vbe:      0.00e+00
Vbc:      0.00e+00
Vce:      0.00e+00
BetaDC:   0.00e+00
Gm:       0.00e+00
Rpi:      1.00e+12
Rx:       0.00e+00
Ro:       2.59e+14
Cbe:      0.00e+00
Cbc:      0.00e+00
Cjs:      0.00e+00
BetaAC:   0.00e+00
Cbx:      0.00e+00
Ft:       0.00e+00



Date: Sat Feb 11 00:16:17 2023
Total elapsed time: 0.815 seconds.

tnom = 27
temp = 27
method = trap
totiter = 7
traniter = 0
tranpoints = 0
accept = 0
rejected = 0
matrix size = 5
fillins = 0
solver = Normal
Matrix Compiler1: 168 bytes object code size
Matrix Compiler2: 315 bytes object code size
