Circuit: * C:\Users\ros\Desktop\LaserTagProject\ltspice files\laserCircuit.asc

Direct Newton iteration for .op point succeeded.
Semiconductor Device Operating Points:
                        --- Diodes ---
Name:    d:u1:4      d:u1:1    d§photodiode
Model:    u1:di       u1:x          d
Id:     -2.67e-11   -2.27e-07   -4.79e-14
Vd:     -2.67e-02   -8.41e-01   -4.00e-02
Req:     1.00e-09    1.00e-04    9.24e+11
CAP:     0.00e+00    0.00e+00    0.00e+00

                        --- VDMOSFET Transistors ---
Name:        m:u1:2      m:u1:1
Model:        u1:p        u1:n
Id:         -2.25e-03    2.25e-03
Vgs:        -7.56e-06   -7.56e-06
Vds:        -5.06e+00    9.37e-01
Vth:         3.00e-01   -3.00e-01
Gm:          1.50e-02    1.50e-02
Gds:         0.00e+00    0.00e+00
Cgs:         0.00e+00    0.00e+00
Cgd:         0.00e+00    0.00e+00
Cbody:       0.00e+00    0.00e+00



Date: Sat Feb 11 00:01:59 2023
Total elapsed time: 9.515 seconds.

tnom = 27
temp = 27
method = trap
totiter = 390
traniter = 0
tranpoints = 0
accept = 0
rejected = 0
matrix size = 10
fillins = 2
solver = Normal
Matrix Compiler1: 498 bytes object code size
Matrix Compiler2: 900 bytes object code size  0.1/0.1/[0.1]

